Time [s],Packet ID,MOSI,MISO
-0.000001041666667,,0x11,
0.000000625000000,,0x31,
0.000011083333333,,0x85,
0.000021375000000,,0x3C,
0.000032708333333,,0x3C,
0.000044000000000,,0x32,
0.000055458333333,,0x85,
0.000065750000000,,0x3C,
0.000077083333333,,0x3C,
0.000088416666667,,0x33,
0.000099875000000,,0x85,
0.000110166666667,,0x3C,
0.000121500000000,,0x3C,
0.000132791666667,,0x05,
0.000144125000000,,0x3C,
0.000155458333333,,0x3C,
0.000166791666667,,0x34,
0.000178250000000,,0x83,
0.000188541666667,,0x40,
0.000200000000000,,0xA8,
0.000210291666667,,0x08,
0.000221583333333,,0x04,
0.000232916666667,,0x41,
0.000244375000000,,0xC0,
0.000254666666667,,0xC2,
0.000266125000000,,0x8D,
0.000276416666667,,0x00,
0.000287750000000,,0x43,
0.000299208333333,,0x8D,
0.000309500000000,,0x95,
0.000320791666667,,0x44,
0.000332250000000,,0x8D,
0.000342541666667,,0xEE,
0.000353875000000,,0xC5,
0.000365333333333,,0x9A,
0.000375625000000,,0x36,
0.000387083333333,,0x40,
0.000397375000000,,0xE0,
0.000408833333333,,0x84,
0.000419125000000,,0x22,
0.000430458333333,,0x07,
0.000441750000000,,0x0A,
0.000453083333333,,0x2E,
0.000464416666667,,0x30,
0.000475750000000,,0x25,
0.000487083333333,,0x12,
0.000498416666667,,0x28,
0.000509708333333,,0x26,
0.000521041666667,,0x2E,
0.000532375000000,,0x3A,
0.000543708333333,,0x00,
0.000555041666667,,0x00,
0.000566333333333,,0x83,
0.000577666666667,,0x13,
0.000589000000000,,0x61,
0.000600458333333,,0x84,
0.000610750000000,,0x16,
0.000622083333333,,0x06,
0.000633416666667,,0x0D,
0.000644750000000,,0x17,
0.000656041666667,,0x83,
0.000667375000000,,0x23,
0.000678708333333,,0x27,
0.000690041666667,,0x27,
0.000701375000000,,0x25,
0.000712708333333,,0x2D,
0.000724041666667,,0x3B,
0.000735375000000,,0x00,
0.000746666666667,,0x01,
0.000758000000000,,0x04,
0.000769333333333,,0x0B,
0.000780666666667,,0x3A,
0.000792083333333,,0x05,
0.000802375000000,,0x29,
0.000813833333333,,0x7F,
0.000824833333333,,0xFF,
0.000835875000000,,0xFF,
0.000846875000000,,0xFF,
0.000857875000000,,0xFF,
0.000868916666667,,0xFF,
0.000879916666667,,0xFF,
0.000890916666667,,0xFF,
0.000901958333333,,0xFF,
0.000912958333333,,0xFF,
0.000923958333333,,0xFF,
0.000935000000000,,0xFF,
0.000946000000000,,0xFF,
0.000957000000000,,0xFF,
0.000968041666667,,0xFF,
0.000979041666667,,0xFF,
0.000990916666667,,0xFF,
0.001001958333333,,0xFF,
0.001012958333333,,0xFF,
0.001023958333333,,0xFF,
0.001035000000000,,0xFF,
0.001046000000000,,0xFF,
0.001057000000000,,0xFF,
0.001068000000000,,0xFF,
0.001079041666667,,0xFF,
0.001090041666667,,0xFF,
0.001101041666667,,0xFF,
0.001112083333333,,0xFF,
0.001123083333333,,0xFF,
0.001134083333333,,0xFF,
0.001145083333333,,0xFF,
0.001156125000000,,0xFF,
0.001167125000000,,0xFF,
0.001178125000000,,0xFF,
0.001189166666667,,0xFF,
0.001200166666667,,0xFF,
0.001211166666667,,0xFF,
0.001222166666667,,0xFF,
0.001233208333333,,0xFF,
0.001244208333333,,0xFF,
0.001255208333333,,0xFF,
0.001266250000000,,0xFF,
0.001277250000000,,0xFF,
0.001288250000000,,0xFF,
0.001299250000000,,0xFF,
0.001310291666667,,0xFF,
0.001321291666667,,0xFF,
0.001332291666667,,0xFF,
0.001343291666667,,0xFF,
0.001354291666667,,0xFF,
0.001365333333333,,0xFF,
0.001376333333333,,0xFF,
0.001387333333333,,0xFF,
0.001398375000000,,0xFF,
0.001409375000000,,0xFF,
0.001420375000000,,0xFF,
0.001431416666667,,0xFF,
0.001442416666667,,0xFF,
0.001453416666667,,0xFF,
0.001464458333333,,0xFF,
0.001475458333333,,0xFF,
0.001486458333333,,0xFF,
0.001497500000000,,0xFF,
0.001508500000000,,0xFF,
0.001519500000000,,0xFF,
0.001530500000000,,0xFF,
0.001541541666667,,0xFF,
0.001552541666667,,0xFF,
0.001563541666667,,0xFF,
0.001574583333333,,0xFF,
0.001585583333333,,0xFF,
0.001596583333333,,0xFF,
0.001607625000000,,0xFF,
0.001618625000000,,0xFF,
0.001629625000000,,0xFF,
0.001640625000000,,0xFF,
0.001651666666667,,0xFF,
0.001662666666667,,0xFF,
0.001673666666667,,0xFF,
0.001684708333333,,0xFF,
0.001695708333333,,0xFF,
0.001706708333333,,0xFF,
0.001717708333333,,0xFF,
0.001728708333333,,0xFF,
0.001739750000000,,0xFF,
0.001750750000000,,0xFF,
0.001761750000000,,0xFF,
0.001772750000000,,0xFF,
0.001783750000000,,0xFF,
0.001794750000000,,0xFF,
0.001805791666667,,0xFF,
0.001816791666667,,0xFF,
0.001827791666667,,0xFF,
0.001838791666667,,0xFF,
0.001849791666667,,0xFF,
0.001860791666667,,0xFF,
0.001871833333333,,0xFF,
0.001882833333333,,0xFF,
0.001893833333333,,0xFF,
0.001904833333333,,0xFF,
0.001915833333333,,0xFF,
0.001926875000000,,0xFF,
0.001937875000000,,0xFF,
0.001948875000000,,0xFF,
0.001959875000000,,0xFF,
0.001970916666667,,0xFF,
0.001981916666667,,0xFF,
0.001993875000000,,0xFF,
0.002004916666667,,0xFF,
0.002015916666667,,0xFF,
0.002026916666667,,0xFF,
0.002037916666667,,0xFF,
0.002048916666667,,0xFF,
0.002059958333333,,0xFF,
0.002070958333333,,0xFF,
0.002081958333333,,0xFF,
0.002092958333333,,0xFF,
0.002104000000000,,0xFF,
0.002115000000000,,0xFF,
0.002126000000000,,0xFF,
0.002137041666667,,0xFF,
0.002148041666667,,0xFF,
0.002159041666667,,0xFF,
0.002170041666667,,0xFF,
0.002181041666667,,0xFF,
0.002192083333333,,0xFF,
0.002203083333333,,0xFF,
0.002214083333333,,0xFF,
0.002225083333333,,0xFF,
0.002236125000000,,0xFF,
0.002247125000000,,0xFF,
0.002258125000000,,0xFF,
0.002269125000000,,0xFF,
0.002280125000000,,0xFF,
0.002291166666667,,0xFF,
0.002302166666667,,0xFF,
0.002313166666667,,0xFF,
0.002324166666667,,0xFF,
0.002335166666667,,0xFF,
0.002346208333333,,0xFF,
0.002357208333333,,0xFF,
0.002368208333333,,0xFF,
0.002379208333333,,0xFF,
0.002390208333333,,0xFF,
0.002401208333333,,0xFF,
0.002412250000000,,0xFF,
0.002423250000000,,0xFF,
0.002434250000000,,0xFF,
0.002445250000000,,0xFF,
0.002456250000000,,0xFF,
0.002467291666667,,0xFF,
0.002478291666667,,0xFF,
0.002489291666667,,0xFF,
0.002500291666667,,0xFF,
0.002511291666667,,0xFF,
0.002522333333333,,0xFF,
0.002533333333333,,0xFF,
0.002544333333333,,0xFF,
0.002555333333333,,0xFF,
0.002566375000000,,0xFF,
0.002577375000000,,0xFF,
0.002588375000000,,0xFF,
0.002599375000000,,0xFF,
0.002610375000000,,0xFF,
0.002621416666667,,0xFF,
0.002632416666667,,0xFF,
0.002643416666667,,0xFF,
0.002654416666667,,0xFF,
0.002665458333333,,0xFF,
0.002676458333333,,0xFF,
0.002687458333333,,0xFF,
0.002698458333333,,0xFF,
0.002709500000000,,0xFF,
0.002720500000000,,0xFF,
0.002731500000000,,0xFF,
0.002742541666667,,0xFF,
0.002753541666667,,0xFF,
0.002764541666667,,0xFF,
0.002775541666667,,0xFF,
0.002786583333333,,0xFF,
0.002797583333333,,0xFF,
0.002808583333333,,0xFF,
0.002819583333333,,0xFF,
0.002830625000000,,0xFF,
0.002841625000000,,0xFF,
0.002852625000000,,0xFF,
0.002863625000000,,0xFF,
0.002874625000000,,0xFF,
0.002885666666667,,0xFF,
0.002896666666667,,0xFF,
0.002907666666667,,0xFF,
0.002918666666667,,0xFF,
0.002929708333333,,0xFF,
0.002940708333333,,0xFF,
0.002951708333333,,0xFF,
0.002962708333333,,0xFF,
0.002973708333333,,0xFF,
0.002985708333333,,0xFF,
0.002996708333333,,0xFF,
0.003007708333333,,0xFF,
0.003018750000000,,0xFF,
0.003029750000000,,0xFF,
0.003040750000000,,0xFF,
0.003051750000000,,0xFF,
0.003062750000000,,0xFF,
0.003073791666667,,0xFF,
0.003084791666667,,0xFF,
0.003095791666667,,0xFF,
0.003106791666667,,0xFF,
0.003117791666667,,0xFF,
0.003128833333333,,0xFF,
0.003139833333333,,0xFF,
0.003150833333333,,0xFF,
0.003161875000000,,0xFF,
0.003172875000000,,0xFF,
0.003183875000000,,0xFF,
0.003194875000000,,0xFF,
0.003205916666667,,0xFF,
0.003216916666667,,0xFF,
0.003227916666667,,0xFF,
0.003238916666667,,0xFF,
0.003249958333333,,0xFF,
0.003260958333333,,0xFF,
0.003271958333333,,0xFF,
0.003282958333333,,0xFF,
0.003294000000000,,0xFF,
0.003305000000000,,0xFF,
0.003316000000000,,0xFF,
0.003327000000000,,0xFF,
0.003338041666667,,0xFF,
0.003349041666667,,0xFF,
0.003360041666667,,0xFF,
0.003371041666667,,0xFF,
0.003382083333333,,0xFF,
0.003393083333333,,0xFF,
0.003404083333333,,0xFF,
0.003415083333333,,0xFF,
0.003426083333333,,0xFF,
0.003437125000000,,0xFF,
0.003448125000000,,0xFF,
0.003459125000000,,0xFF,
0.003470166666667,,0xFF,
0.003481166666667,,0xFF,
0.003492166666667,,0xFF,
0.003503166666667,,0xFF,
0.003514208333333,,0xFF,
0.003525208333333,,0xFF,
0.003536208333333,,0xFF,
0.003547208333333,,0xFF,
0.003558250000000,,0xFF,
0.003569250000000,,0xFF,
0.003580250000000,,0xFF,
0.003591250000000,,0xFF,
0.003602291666667,,0xFF,
0.003613291666667,,0xFF,
0.003624291666667,,0xFF,
0.003635291666667,,0xFF,
0.003646333333333,,0xFF,
0.003657333333333,,0xFF,
0.003668333333333,,0xFF,
0.003679333333333,,0xFF,
0.003690333333333,,0xFF,
0.003701375000000,,0xFF,
0.003712375000000,,0xFF,
0.003723375000000,,0xFF,
0.003734375000000,,0xFF,
0.003745416666667,,0xFF,
0.003756416666667,,0xFF,
0.003767416666667,,0xFF,
0.003778416666667,,0xFF,
0.003789416666667,,0xFF,
0.003800458333333,,0xFF,
0.003811458333333,,0xFF,
0.003822458333333,,0xFF,
0.003833458333333,,0xFF,
0.003844500000000,,0xFF,
0.003855500000000,,0xFF,
0.003866500000000,,0xFF,
0.003877541666667,,0xFF,
0.003888541666667,,0xFF,
0.003899541666667,,0xFF,
0.003910541666667,,0xFF,
0.003921583333333,,0xFF,
0.003932583333333,,0xFF,
0.003943583333333,,0xFF,
0.003954625000000,,0xFF,
0.003965625000000,,0xFF,
0.003976625000000,,0xFF,
0.003988583333333,,0xFF,
0.003999583333333,,0xFF,
0.004010583333333,,0xFF,
0.004021583333333,,0xFF,
0.004032583333333,,0xFF,
0.004043583333333,,0xFF,
0.004054625000000,,0xFF,
0.004065625000000,,0xFF,
0.004076625000000,,0xFF,
0.004087625000000,,0xFF,
0.004098625000000,,0xFF,
0.004109666666667,,0xFF,
0.004120666666667,,0xFF,
0.004131666666667,,0xFF,
0.004142666666667,,0xFF,
0.004153708333333,,0xFF,
0.004164708333333,,0xFF,
0.004175708333333,,0xFF,
0.004186708333333,,0xFF,
0.004197750000000,,0xFF,
0.004208750000000,,0xFF,
0.004219750000000,,0xFF,
0.004230750000000,,0xFF,
0.004241791666667,,0xFF,
0.004252791666667,,0xFF,
0.004263791666667,,0xFF,
0.004274833333333,,0xFF,
0.004285833333333,,0xFF,
0.004296833333333,,0xFF,
0.004307833333333,,0xFF,
0.004318875000000,,0xFF,
0.004329875000000,,0xFF,
0.004340875000000,,0xFF,
0.004351875000000,,0xFF,
0.004362916666667,,0xFF,
0.004373916666667,,0xFF,
0.004384916666667,,0xFF,
0.004395958333333,,0xFF,
0.004406958333333,,0xFF,
0.004417958333333,,0xFF,
0.004428958333333,,0xFF,
0.004440000000000,,0xFF,
0.004451000000000,,0xFF,
0.004462000000000,,0xFF,
0.004473000000000,,0xFF,
0.004484041666667,,0xFF,
0.004495041666667,,0xFF,
0.004506041666667,,0xFF,
0.004517041666667,,0xFF,
0.004528083333333,,0xFF,
0.004539083333333,,0xFF,
0.004550083333333,,0xFF,
0.004561083333333,,0xFF,
0.004572125000000,,0xFF,
0.004583125000000,,0xFF,
0.004594125000000,,0xFF,
0.004605125000000,,0xFF,
0.004616125000000,,0xFF,
0.004627125000000,,0xFF,
0.004638166666667,,0xFF,
0.004649166666667,,0xFF,
0.004660166666667,,0xFF,
0.004671166666667,,0xFF,
0.004682166666667,,0xFF,
0.004693166666667,,0xFF,
0.004704166666667,,0xFF,
0.004715166666667,,0xFF,
0.004726208333333,,0xFF,
0.004737208333333,,0xFF,
0.004748208333333,,0xFF,
0.004759208333333,,0xFF,
0.004770208333333,,0xFF,
0.004781250000000,,0xFF,
0.004792250000000,,0xFF,
0.004803250000000,,0xFF,
0.004814291666667,,0xFF,
0.004825291666667,,0xFF,
0.004836291666667,,0xFF,
0.004847291666667,,0xFF,
0.004858333333333,,0xFF,
0.004869333333333,,0xFF,
0.004880333333333,,0xFF,
0.004891333333333,,0xFF,
0.004902375000000,,0xFF,
0.004913375000000,,0xFF,
0.004924375000000,,0xFF,
0.004935375000000,,0xFF,
0.004946416666667,,0xFF,
0.004957416666667,,0xFF,
0.004968416666667,,0xFF,
0.004979416666667,,0xFF,
0.004991416666667,,0xFF,
0.005002416666667,,0xFF,
0.005013416666667,,0xFF,
0.005024458333333,,0xFF,
0.005035458333333,,0xFF,
0.005046458333333,,0xFF,
0.005057458333333,,0xFF,
0.005068500000000,,0xFF,
0.005079500000000,,0xFF,
0.005090500000000,,0xFF,
0.005101500000000,,0xFF,
0.005112541666667,,0xFF,
0.005123541666667,,0xFF,
0.005134541666667,,0xFF,
0.005145541666667,,0xFF,
0.005156541666667,,0xFF,
0.005167583333333,,0xFF,
0.005178583333333,,0xFF,
0.005189583333333,,0xFF,
0.005200583333333,,0xFF,
0.005211583333333,,0xFF,
0.005222625000000,,0xFF,
0.005233625000000,,0xFF,
0.005244625000000,,0xFF,
0.005255625000000,,0xFF,
0.005266666666667,,0xFF,
0.005277666666667,,0xFF,
0.005288666666667,,0xFF,
0.005299666666667,,0xFF,
0.005310666666667,,0xFF,
0.005321708333333,,0xFF,
0.005332708333333,,0xFF,
0.005343708333333,,0xFF,
0.005354708333333,,0xFF,
0.005365750000000,,0xFF,
0.005376750000000,,0xFF,
0.005387750000000,,0xFF,
0.005398750000000,,0xFF,
0.005409791666667,,0xFF,
0.005420791666667,,0xFF,
0.005431791666667,,0xFF,
0.005442791666667,,0xFF,
0.005453791666667,,0xFF,
0.005464791666667,,0xFF,
0.005475791666667,,0xFF,
0.005486833333333,,0xFF,
0.005497833333333,,0xFF,
0.005508833333333,,0xFF,
0.005519833333333,,0xFF,
0.005530833333333,,0xFF,
0.005541875000000,,0xFF,
0.005552875000000,,0xFF,
0.005563875000000,,0xFF,
0.005574875000000,,0xFF,
0.005585916666667,,0xFF,
0.005596916666667,,0xFF,
0.005607916666667,,0xFF,
0.005618916666667,,0xFF,
0.005629958333333,,0xFF,
0.005640958333333,,0xFF,
0.005651958333333,,0xFF,
0.005662958333333,,0xFF,
0.005673958333333,,0xFF,
0.005685000000000,,0xFF,
0.005696000000000,,0xFF,
0.005707000000000,,0xFF,
0.005718000000000,,0xFF,
0.005729041666667,,0xFF,
0.005740041666667,,0xFF,
0.005751041666667,,0xFF,
0.005762041666667,,0xFF,
0.005773041666667,,0xFF,
0.005784041666667,,0xFF,
0.005795083333333,,0xFF,
0.005806083333333,,0xFF,
0.005817083333333,,0xFF,
0.005828083333333,,0xFF,
0.005839083333333,,0xFF,
0.005850125000000,,0xFF,
0.005861125000000,,0xFF,
0.005872125000000,,0xFF,
0.005883125000000,,0xFF,
0.005894125000000,,0xFF,
0.005905166666667,,0xFF,
0.005916166666667,,0xFF,
0.005927166666667,,0xFF,
0.005938166666667,,0xFF,
0.005949208333333,,0xFF,
0.005960208333333,,0xFF,
0.005971208333333,,0xFF,
0.005982208333333,,0xFF,
0.005994125000000,,0xFF,
0.006005125000000,,0xFF,
0.006016125000000,,0xFF,
0.006027125000000,,0xFF,
0.006038125000000,,0xFF,
0.006049166666667,,0xFF,
0.006060166666667,,0xFF,
0.006071166666667,,0xFF,
0.006082166666667,,0xFF,
0.006093208333333,,0xFF,
0.006104208333333,,0xFF,
0.006115208333333,,0xFF,
0.006126208333333,,0xFF,
0.006137208333333,,0xFF,
0.006148208333333,,0xFF,
0.006159208333333,,0xFF,
0.006170250000000,,0xFF,
0.006181250000000,,0xFF,
0.006192250000000,,0xFF,
0.006203250000000,,0xFF,
0.006214291666667,,0xFF,
0.006225291666667,,0xFF,
0.006236291666667,,0xFF,
0.006247333333333,,0xFF,
0.006258333333333,,0xFF,
0.006269333333333,,0xFF,
0.006280333333333,,0xFF,
0.006291333333333,,0xFF,
0.006302375000000,,0xFF,
0.006313375000000,,0xFF,
0.006324375000000,,0xFF,
0.006335416666667,,0xFF,
0.006346416666667,,0xFF,
0.006357416666667,,0xFF,
0.006368458333333,,0xFF,
0.006379458333333,,0xFF,
0.006390458333333,,0xFF,
0.006401458333333,,0xFF,
0.006412500000000,,0xFF,
0.006423500000000,,0xFF,
0.006434500000000,,0xFF,
0.006445500000000,,0xFF,
0.006456541666667,,0xFF,
0.006467541666667,,0xFF,
0.006478541666667,,0xFF,
0.006489541666667,,0xFF,
0.006500541666667,,0xFF,
0.006511583333333,,0xFF,
0.006522583333333,,0xFF,
0.006533583333333,,0xFF,
0.006544583333333,,0xFF,
0.006555625000000,,0xFF,
0.006566625000000,,0xFF,
0.006577625000000,,0xFF,
0.006588625000000,,0xFF,
0.006599625000000,,0xFF,
0.006610666666667,,0xFF,
0.006621666666667,,0xFF,
0.006632666666667,,0xFF,
0.006643666666667,,0xFF,
0.006654708333333,,0xFF,
0.006665708333333,,0xFF,
0.006676708333333,,0xFF,
0.006687708333333,,0xFF,
0.006698750000000,,0xFF,
0.006709750000000,,0xFF,
0.006720750000000,,0xFF,
0.006731750000000,,0xFF,
0.006742791666667,,0xFF,
0.006753791666667,,0xFF,
0.006764791666667,,0xFF,
0.006775791666667,,0xFF,
0.006786833333333,,0xFF,
0.006797833333333,,0xFF,
0.006808833333333,,0xFF,
0.006819833333333,,0xFF,
0.006830875000000,,0xFF,
0.006841875000000,,0xFF,
0.006852875000000,,0xFF,
0.006863875000000,,0xFF,
0.006874916666667,,0xFF,
0.006885916666667,,0xFF,
0.006896916666667,,0xFF,
0.006907958333333,,0xFF,
0.006918958333333,,0xFF,
0.006929958333333,,0xFF,
0.006940958333333,,0xFF,
0.006952000000000,,0xFF,
0.006963000000000,,0xFF,
0.006974000000000,,0xFF,
0.006985000000000,,0xFF,
0.006997083333333,,0xFF,
0.007008125000000,,0xFF,
0.007019125000000,,0xFF,
0.007030125000000,,0xFF,
0.007041125000000,,0xFF,
0.007052166666667,,0xFF,
0.007063166666667,,0xFF,
0.007074166666667,,0xFF,
0.007085166666667,,0xFF,
0.007096208333333,,0xFF,
0.007107208333333,,0xFF,
0.007118208333333,,0xFF,
0.007129208333333,,0xFF,
0.007140208333333,,0xFF,
0.007151250000000,,0xFF,
0.007162250000000,,0xFF,
0.007173250000000,,0xFF,
0.007184250000000,,0xFF,
0.007195250000000,,0xFF,
0.007206291666667,,0xFF,
0.007217291666667,,0xFF,
0.007228291666667,,0xFF,
0.007239291666667,,0xFF,
0.007250291666667,,0xFF,
0.007261291666667,,0xFF,
0.007272291666667,,0xFF,
0.007283333333333,,0xFF,
0.007294333333333,,0xFF,
0.007305333333333,,0xFF,
0.007316333333333,,0xFF,
0.007327333333333,,0xFF,
0.007338375000000,,0xFF,
0.007349375000000,,0xFF,
0.007360375000000,,0xFF,
0.007371375000000,,0xFF,
0.007382416666667,,0xFF,
0.007393416666667,,0xFF,
0.007404416666667,,0xFF,
0.007415416666667,,0xFF,
0.007426416666667,,0xFF,
0.007437458333333,,0xFF,
0.007448458333333,,0xFF,
0.007459458333333,,0xFF,
0.007470458333333,,0xFF,
0.007481458333333,,0xFF,
0.007492500000000,,0xFF,
0.007503500000000,,0xFF,
0.007514500000000,,0xFF,
0.007525500000000,,0xFF,
0.007536500000000,,0xFF,
0.007547541666667,,0xFF,
0.007558541666667,,0xFF,
0.007569541666667,,0xFF,
0.007580541666667,,0xFF,
0.007591583333333,,0xFF,
0.007602583333333,,0xFF,
0.007613583333333,,0xFF,
0.007624583333333,,0xFF,
0.007635583333333,,0xFF,
0.007646625000000,,0xFF,
0.007657625000000,,0xFF,
0.007668625000000,,0xFF,
0.007679625000000,,0xFF,
0.007690666666667,,0xFF,
0.007701666666667,,0xFF,
0.007712666666667,,0xFF,
0.007723666666667,,0xFF,
0.007734708333333,,0xFF,
0.007745708333333,,0xFF,
0.007756708333333,,0xFF,
0.007767708333333,,0xFF,
0.007778750000000,,0xFF,
0.007789750000000,,0xFF,
0.007800750000000,,0xFF,
0.007811791666667,,0xFF,
0.007822791666667,,0xFF,
0.007833791666667,,0xFF,
0.007844833333333,,0xFF,
0.007855833333333,,0xFF,
0.007866833333333,,0xFF,
0.007877875000000,,0xFF,
0.007888875000000,,0xFF,
0.007899875000000,,0xFF,
0.007910916666667,,0xFF,
0.007921916666667,,0xFF,
0.007932916666667,,0xFF,
0.007943958333333,,0xFF,
0.007954958333333,,0xFF,
0.007965958333333,,0xFF,
0.007976958333333,,0xFF,
0.007988958333333,,0xFF,
0.007999958333333,,0xFF,
0.008010958333333,,0xFF,
0.008022000000000,,0xFF,
0.008033000000000,,0xFF,
0.008044000000000,,0xFF,
0.008055000000000,,0xFF,
0.008066041666667,,0xFF,
0.008077041666667,,0xFF,
0.008088041666667,,0xFF,
0.008099041666667,,0xFF,
0.008110083333333,,0xFF,
0.008121083333333,,0xFF,
0.008132083333333,,0xFF,
0.008143083333333,,0xFF,
0.008154125000000,,0xFF,
0.008165125000000,,0xFF,
0.008176125000000,,0xFF,
0.008187125000000,,0xFF,
0.008198125000000,,0xFF,
0.008209166666667,,0xFF,
0.008220166666667,,0xFF,
0.008231166666667,,0xFF,
0.008242166666667,,0xFF,
0.008253208333333,,0xFF,
0.008264208333333,,0xFF,
0.008275208333333,,0xFF,
0.008286208333333,,0xFF,
0.008297208333333,,0xFF,
0.008308250000000,,0xFF,
0.008319250000000,,0xFF,
0.008330250000000,,0xFF,
0.008341250000000,,0xFF,
0.008352250000000,,0xFF,
0.008363291666667,,0xFF,
0.008374291666667,,0xFF,
0.008385291666667,,0xFF,
0.008396333333333,,0xFF,
0.008407333333333,,0xFF,
0.008418333333333,,0xFF,
0.008429333333333,,0xFF,
0.008440333333333,,0xFF,
0.008451375000000,,0xFF,
0.008462375000000,,0xFF,
0.008473375000000,,0xFF,
0.008484416666667,,0xFF,
0.008495416666667,,0xFF,
0.008506416666667,,0xFF,
0.008517416666667,,0xFF,
0.008528458333333,,0xFF,
0.008539458333333,,0xFF,
0.008550458333333,,0xFF,
0.008561458333333,,0xFF,
0.008572500000000,,0xFF,
0.008583500000000,,0xFF,
0.008594500000000,,0xFF,
0.008605541666667,,0xFF,
0.008616541666667,,0xFF,
0.008627541666667,,0xFF,
0.008638583333333,,0xFF,
0.008649583333333,,0xFF,
0.008660583333333,,0xFF,
0.008671583333333,,0xFF,
0.008682625000000,,0xFF,
0.008693625000000,,0xFF,
0.008704625000000,,0xFF,
0.008715666666667,,0xFF,
0.008726666666667,,0xFF,
0.008737666666667,,0xFF,
0.008748666666667,,0xFF,
0.008759708333333,,0xFF,
0.008770708333333,,0xFF,
0.008781708333333,,0xFF,
0.008792750000000,,0xFF,
0.008803750000000,,0xFF,
0.008814750000000,,0xFF,
0.008825750000000,,0xFF,
0.008836791666667,,0xFF,
0.008847791666667,,0xFF,
0.008858791666667,,0xFF,
0.008869791666667,,0xFF,
0.008880833333333,,0xFF,
0.008891833333333,,0xFF,
0.008902833333333,,0xFF,
0.008913833333333,,0xFF,
0.008924833333333,,0xFF,
0.008935833333333,,0xFF,
0.008946875000000,,0xFF,
0.008957875000000,,0xFF,
0.008968875000000,,0xFF,
0.008979875000000,,0xFF,
0.008991875000000,,0xFF,
0.009002875000000,,0xFF,
0.009013875000000,,0xFF,
0.009024875000000,,0xFF,
0.009035875000000,,0xFF,
0.009046916666667,,0xFF,
0.009057916666667,,0xFF,
0.009068916666667,,0xFF,
0.009079916666667,,0xFF,
0.009090916666667,,0xFF,
0.009101958333333,,0xFF,
0.009112958333333,,0xFF,
0.009123958333333,,0xFF,
0.009134958333333,,0xFF,
0.009145958333333,,0xFF,
0.009157000000000,,0xFF,
0.009168000000000,,0xFF,
0.009179000000000,,0xFF,
0.009190000000000,,0xFF,
0.009201000000000,,0xFF,
0.009212041666667,,0xFF,
0.009223041666667,,0xFF,
0.009234041666667,,0xFF,
0.009245041666667,,0xFF,
0.009256041666667,,0xFF,
0.009267041666667,,0xFF,
0.009278041666667,,0xFF,
0.009289083333333,,0xFF,
0.009300083333333,,0xFF,
0.009311083333333,,0xFF,
0.009322125000000,,0xFF,
0.009333125000000,,0xFF,
0.009344125000000,,0xFF,
0.009355125000000,,0xFF,
0.009366166666667,,0xFF,
0.009377166666667,,0xFF,
0.009388166666667,,0xFF,
0.009399166666667,,0xFF,
0.009410208333333,,0xFF,
0.009421208333333,,0xFF,
0.009432208333333,,0xFF,
0.009443208333333,,0xFF,
0.009454250000000,,0xFF,
0.009465250000000,,0xFF,
0.009476250000000,,0xFF,
0.009487250000000,,0xFF,
0.009498291666667,,0xFF,
0.009509291666667,,0xFF,
0.009520291666667,,0xFF,
0.009531291666667,,0xFF,
0.009542291666667,,0xFF,
0.009553333333333,,0xFF,
0.009564333333333,,0xFF,
0.009575333333333,,0xFF,
0.009586333333333,,0xFF,
0.009597375000000,,0xFF,
0.009608375000000,,0xFF,
0.009619375000000,,0xFF,
0.009630375000000,,0xFF,
0.009641416666667,,0xFF,
0.009652416666667,,0xFF,
0.009663416666667,,0xFF,
0.009674416666667,,0xFF,
0.009685416666667,,0xFF,
0.009696458333333,,0xFF,
0.009707458333333,,0xFF,
0.009718458333333,,0xFF,
0.009729500000000,,0xFF,
0.009740500000000,,0xFF,
0.009751500000000,,0xFF,
0.009762500000000,,0xFF,
0.009773500000000,,0xFF,
0.009784541666667,,0xFF,
0.009795541666667,,0xFF,
0.009806541666667,,0xFF,
0.009817541666667,,0xFF,
0.009828541666667,,0xFF,
0.009839541666667,,0xFF,
0.009850541666667,,0xFF,
0.009861583333333,,0xFF,
0.009872583333333,,0xFF,
0.009883583333333,,0xFF,
0.009894583333333,,0xFF,
0.009905625000000,,0xFF,
0.009916625000000,,0xFF,
0.009927625000000,,0xFF,
0.009938625000000,,0xFF,
0.009949625000000,,0xFF,
0.009960666666667,,0xFF,
0.009971666666667,,0xFF,
0.009982666666667,,0xFF,
0.009994625000000,,0xFF,
0.010005666666667,,0xFF,
0.010016666666667,,0xFF,
0.010027666666667,,0xFF,
0.010038666666667,,0xFF,
0.010049666666667,,0xFF,
0.010060708333333,,0xFF,
0.010071708333333,,0xFF,
0.010082708333333,,0xFF,
0.010093708333333,,0xFF,
0.010104750000000,,0xFF,
0.010115750000000,,0xFF,
0.010126750000000,,0xFF,
0.010137750000000,,0xFF,
0.010148791666667,,0xFF,
0.010159791666667,,0xFF,
0.010170791666667,,0xFF,
0.010181791666667,,0xFF,
0.010192833333333,,0xFF,
0.010203833333333,,0xFF,
0.010214833333333,,0xFF,
0.010225833333333,,0xFF,
0.010236833333333,,0xFF,
0.010247833333333,,0xFF,
0.010258875000000,,0xFF,
0.010269875000000,,0xFF,
0.010280875000000,,0xFF,
0.010291875000000,,0xFF,
0.010302875000000,,0xFF,
0.010313916666667,,0xFF,
0.010324916666667,,0xFF,
0.010335916666667,,0xFF,
0.010346916666667,,0xFF,
0.010357958333333,,0xFF,
0.010368958333333,,0xFF,
0.010379958333333,,0xFF,
0.010390958333333,,0xFF,
0.010401958333333,,0xFF,
0.010413000000000,,0xFF,
0.010424000000000,,0xFF,
0.010435000000000,,0xFF,
0.010446000000000,,0xFF,
0.010457000000000,,0xFF,
0.010468041666667,,0xFF,
0.010479041666667,,0xFF,
0.010490041666667,,0xFF,
0.010501041666667,,0xFF,
0.010512083333333,,0xFF,
0.010523083333333,,0xFF,
0.010534083333333,,0xFF,
0.010545083333333,,0xFF,
0.010556125000000,,0xFF,
0.010567125000000,,0xFF,
0.010578125000000,,0xFF,
0.010589125000000,,0xFF,
0.010600166666667,,0xFF,
0.010611166666667,,0xFF,
0.010622166666667,,0xFF,
0.010633166666667,,0xFF,
0.010644208333333,,0xFF,
0.010655208333333,,0xFF,
0.010666208333333,,0xFF,
0.010677208333333,,0xFF,
0.010688250000000,,0xFF,
0.010699250000000,,0xFF,
0.010710250000000,,0xFF,
0.010721250000000,,0xFF,
0.010732291666667,,0xFF,
0.010743291666667,,0xFF,
0.010754291666667,,0xFF,
0.010765291666667,,0xFF,
0.010776333333333,,0xFF,
0.010787333333333,,0xFF,
0.010798333333333,,0xFF,
0.010809333333333,,0xFF,
0.010820375000000,,0xFF,
0.010831375000000,,0xFF,
0.010842375000000,,0xFF,
0.010853375000000,,0xFF,
0.010864416666667,,0xFF,
0.010875416666667,,0xFF,
0.010886416666667,,0xFF,
0.010897458333333,,0xFF,
0.010908458333333,,0xFF,
0.010919458333333,,0xFF,
0.010930458333333,,0xFF,
0.010941500000000,,0xFF,
0.010952500000000,,0xFF,
0.010963500000000,,0xFF,
0.010974500000000,,0xFF,
0.010985541666667,,0xFF,
